LTspice 24.0.12 for Windows
Circuit: * C:\Users\mathe\Documents\GitHub\1CTDC\Regulador Lineal_V3.asc
Start Time: Fri Apr 11 01:16:15 2025
solver = Normal
Maximum thread count: 8



Direct Newton iteration failed to find .op point.  (Use ".option noopiter" to skip.)
Starting Gmin stepping
Gmin = 10
Gmin = 1.07374
Gmin = 0.115292
Gmin = 0.0123794
Gmin = 0.00132923
Gmin = 0.000142725
Gmin = 1.5325e-05
Gmin = 1.6455e-06
Gmin = 1.76685e-07
Gmin = 1.89714e-08
Gmin = 2.03704e-09
Gmin = 2.18725e-10
Gmin = 2.34854e-11
Gmin = 2.52173e-12
Gmin = 2.70769e-13
Gmin = 0
Gmin stepping succeeded in finding the operating point.

Semiconductor Device Operating Points:
                        --- Bipolar Transistors ---
Name:       q1          q2          q5          q3          q4
Model:     bd140       bd140       bd140       bd139       bd139
Ib:      -1.56e-05   -2.06e-03   -2.56e-03    2.54e-05   -2.26e-11
Ic:      -2.75e-03   -9.65e-05   -3.47e-01    4.82e-03    2.23e-11
Vbe:     -5.96e-01   -6.57e-01   -7.71e-01    6.16e-01   -1.70e-01
Vbc:      0.00e+00   -6.68e-01    3.97e-02   -1.63e+00   -3.08e+00
Vce:     -5.96e-01    1.08e-02   -8.11e-01    2.24e+00    2.91e+00
BetaDC:   1.77e+02    4.69e-02    1.35e+02    1.89e+02   -9.87e-01
Gm:       1.06e-01    8.06e-02    1.06e+01    1.85e-01    1.34e-14
Rpi:      1.69e+03    1.84e+02    1.01e+01    1.05e+03    9.99e+11
Rx:       1.97e+00    1.52e+00    1.46e+00    2.14e+00    2.14e+00
Ro:       4.63e+04    1.38e+00    3.61e+02    1.91e+04    2.99e+17
Cbe:      3.52e-10    3.69e-10    3.91e-10    4.68e-10    2.72e-10
Cbc:      3.61e-11    7.08e-11    3.52e-11    1.48e-11    1.21e-11
Cjs:      0.00e+00    0.00e+00    0.00e+00    0.00e+00    0.00e+00
BetaAC:   1.79e+02    1.48e+01    1.08e+02    1.93e+02    1.33e-02
Cbx:      3.22e-11    6.32e-11    3.14e-11    1.32e-11    1.08e-11
Ft:       4.00e+07    2.55e+07    3.69e+09    5.93e+07    5.41e-04

Name:       q6          q7          q8          q10
Model:     bd139       bd139       bd139       bd139
Ib:       9.65e-05   -2.19e-11    2.57e-05    2.57e-05
Ic:       2.56e-03    2.12e-11    4.84e-03    4.78e-03
Vbe:      6.06e-01   -6.12e-01    6.16e-01    6.16e-01
Vbc:      5.67e-01   -1.98e+00   -1.27e+00    0.00e+00
Vce:      3.97e-02    1.37e+00    1.88e+00    6.16e-01
BetaDC:   2.65e+01   -9.68e-01    1.89e+02    1.86e+02
Gm:       1.01e-01    5.42e-22    1.86e-01    1.83e-01
Rpi:      1.50e+03    1.00e+12    1.04e+03    1.04e+03
Rx:       2.12e+00    2.14e+00    2.14e+00    2.14e+00
Ro:       4.20e+01    7.71e+24    1.89e+04    1.89e+04
Cbe:      4.65e-10    2.37e-10    4.68e-10    4.68e-10
Cbc:      4.93e-11    1.40e-11    1.59e-11    2.58e-11
Cjs:      0.00e+00    0.00e+00    0.00e+00    0.00e+00
BetaAC:   1.51e+02    5.42e-10    1.92e+02    1.90e+02
Cbx:      4.39e-11    1.25e-11    1.42e-11    2.30e-11
Ft:       2.88e+07    6.05e-04    5.93e+07    5.64e+07





















































































































































tnom = 27
temp = 27
method = modified trap

vo1rl: v(vo)=5.0074 at 12
vo2rl: v(vo)=5.01395 at 24
reglin: ((vo2rl-vo1rl)/12)=0.00054582

Measurement "vo1rc" FAIL'ed
vo2rc: v(vo)=3.42711 at 5

Measurement "io1rc" FAIL'ed
io2rc: i(rl)=0.342711 at 5

Measurement "regcar" FAIL'ed

Total elapsed time: 4.260 seconds.

